
**** 10/31/23 09:13:29 ******* PSpice Lite (March 2016) ******* ID# 10813 ****

 ** Profile: "SCHEMATIC1-sim"  [ D:\WorkSpace\Circuitos_DC-AC\practica 2\practica2-pspicefiles\schematic1\sim.sim ] 


 ****     CIRCUIT DESCRIPTION


******************************************************************************




** Creating circuit file "sim.cir" 
** WARNING: THIS AUTOMATICALLY GENERATED FILE MAY BE OVERWRITTEN BY SUBSEQUENT SIMULATIONS

*Libraries: 
* Profile Libraries :
* Local Libraries :
* From [PSPICE NETLIST] section of C:\Users\jehh1\AppData\Roaming\cdssetup\OrCAD_PSpice\17.2.0\PSpice.ini file:
.lib "nomd.lib" 

*Analysis directives: 
.TRAN  0 1000ns 0 
.OPTIONS ADVCONV
.PROBE64 V(alias(*)) I(alias(*)) W(alias(*)) D(alias(*)) NOISE(alias(*)) 
.INC "..\SCHEMATIC1.net" 



**** INCLUDING SCHEMATIC1.net ****
* source PRACTICA2
C_C1         N00254 N00278  1u  TC=0,0 
C_C2         0 N00278  10n  TC=0,0 
R_R1         N00247 N00254  1k TC=0,0 
R_R2         0 N00289  1k TC=0,0 
R_R3         N00254 N00278  1k TC=0,0 
R_R4         0 N00278  1k TC=0,0 
R_R5         N00285 N00254  330 TC=0,0 
L_L1         N00285 N00289  1.5H  
V_V1         N00247 0 9Vdc

**** RESUMING sim.cir ****
.END

**** 10/31/23 09:13:29 ******* PSpice Lite (March 2016) ******* ID# 10813 ****

 ** Profile: "SCHEMATIC1-sim"  [ D:\WorkSpace\Circuitos_DC-AC\practica 2\practica2-pspicefiles\schematic1\sim.sim ] 


 ****     INITIAL TRANSIENT SOLUTION       TEMPERATURE =   27.000 DEG C


******************************************************************************



 NODE   VOLTAGE     NODE   VOLTAGE     NODE   VOLTAGE     NODE   VOLTAGE


(N00247)    9.0000 (N00254)    3.9967 (N00278)    1.9983 (N00285)    3.0050     

(N00289)    3.0050 




    VOLTAGE SOURCE CURRENTS
    NAME         CURRENT

    V_V1        -5.003E-03

    TOTAL POWER DISSIPATION   4.50E-02  WATTS



          JOB CONCLUDED

**** 10/31/23 09:13:29 ******* PSpice Lite (March 2016) ******* ID# 10813 ****

 ** Profile: "SCHEMATIC1-sim"  [ D:\WorkSpace\Circuitos_DC-AC\practica 2\practica2-pspicefiles\schematic1\sim.sim ] 


 ****     JOB STATISTICS SUMMARY


******************************************************************************



  Total job time (using Solver 1)   =         .02
